
T27D0 000:484 SEGGER J-Link V4.96d Log File (0001ms, 0270ms total)
T27D0 000:484 DLL Compiled: Jan 29 2015 11:45:37 (0001ms, 0270ms total)
T27D0 000:484 Logging started @ 2019-05-22 14:21 (0001ms, 0270ms total)
T27D0 000:485 JLINK_SetWarnOutHandler(...) (0001ms, 0271ms total)
T27D0 000:486 JLINK_OpenEx(...)
Firmware: J-Link ARM V8 compiled Nov 28 2014 13:44:46
Hardware: V8.00
S/N: 1631096674
Feature(s): RDI,FlashDL,FlashBP,JFlash,GDBFULL  returns O.K. (0266ms, 0537ms total)
T27D0 000:752 JLINK_SetErrorOutHandler(...) (0000ms, 0537ms total)
T27D0 000:752 JLINK_ExecCommand("ProjectFile = "E:\personal\学习\程序类\RTOS\RTThread\RTT_Practice\移植到STM32F407\5.重映设串口到rt_kprintf函数\Project\RVMDK（uv4）\JLinkSettings.ini"", ...)Device "UNSPECIFIED" selected.  returns 0x00 (0041ms, 0578ms total)
T27D0 000:795 JLINK_ExecCommand("Device = STM32F407ZGTx", ...)Device "UNSPECIFIED" selected.  returns 0x00 (0002ms, 0580ms total)
T27D0 000:797 JLINK_ExecCommand("DisableConnectionTimeout", ...)  returns 0x01 (0000ms, 0580ms total)
T27D0 000:797 JLINK_GetHardwareVersion()  returns 0x13880 (0000ms, 0580ms total)
T27D0 000:797 JLINK_GetDLLVersion()  returns 49604 (0000ms, 0580ms total)
T27D0 000:797 JLINK_GetFirmwareString(...) (0000ms, 0580ms total)
T27D0 000:802 JLINK_GetDLLVersion()  returns 49604 (0000ms, 0580ms total)
T27D0 000:802 JLINK_GetCompileDateTime() (0000ms, 0580ms total)
T27D0 000:803 JLINK_GetFirmwareString(...) (0000ms, 0580ms total)
T27D0 000:805 JLINK_GetHardwareVersion()  returns 0x13880 (0000ms, 0580ms total)
T27D0 000:811 JLINK_TIF_Select(JLINKARM_TIF_JTAG)  returns 0x00 (0002ms, 0583ms total)
T27D0 000:813 JLINK_SetSpeed(20000) (0001ms, 0584ms total)
T27D0 000:814 JLINK_GetIdData(...) >0x2F8 JTAG>TotalIRLen = 9, IRPrint = 0x0011 >0x30 JTAG> >0x210 JTAG> >0x70 JTAG> >0x40 JTAG> >0x40 JTAG> >0x40 JTAG> >0x50 JTAG> >0x80 JTAG> >0x40 JTAG> >0x30 JTAG> >0x40 JTAG> >0x40 JTAG> >0x30 JTAG> >0x40 JTAG> >0x50 JTAG>Found Cortex-M4 r0p1, Little endian. -- CPU_WriteMem(4 bytes @ 0xE0002000) -- CPU_ReadMem(4 bytes @ 0xE000EDF0) -- CPU_ReadMem(4 bytes @ 0xE0002000)FPUnit: 6 code (BP) slots and 2 literal slots -- CPU_ReadMem(4 bytes @ 0xE000EDFC)
 -- CPU_ReadMem(4 bytes @ 0xE0001000) -- CPU_WriteMem(4 bytes @ 0xE0001000) -- CPU_ReadMem(4 bytes @ 0xE000ED88) -- CPU_WriteMem(4 bytes @ 0xE000ED88) -- CPU_ReadMem(4 bytes @ 0xE000ED88) -- CPU_WriteMem(4 bytes @ 0xE000ED88) -- CPU_ReadMem(4 bytes @ 0xE00FF010)TPIU fitted. -- CPU_ReadMem(4 bytes @ 0xE00FF014)ETM fitted. -- CPU_ReadMem(4 bytes @ 0xE00FF018) ScanLen=9 NumDevices=2 aId[0]=0x4BA00477 aIrRead[0]=0 aScanLen[0]=0 aScanRead[0]=0 (0027ms, 0611ms total)
T27D0 000:841 JLINK_JTAG_GetDeviceID(DeviceIndex = 0)  returns 0x4BA00477 (0000ms, 0611ms total)
T27D0 000:841 JLINK_JTAG_GetDeviceInfo(DeviceIndex = 0)  returns 0x00 (0000ms, 0611ms total)
T27D0 000:841 JLINK_JTAG_GetDeviceID(DeviceIndex = 1)  returns 0x6413041 (0000ms, 0611ms total)
T27D0 000:841 JLINK_JTAG_GetDeviceInfo(DeviceIndex = 1)  returns 0x00 (0000ms, 0611ms total)
T27D0 000:841 JLINK_GetDLLVersion()  returns 49604 (0000ms, 0611ms total)
T27D0 000:841 JLINK_CORE_GetFound()  returns 0xE0000FF (0000ms, 0611ms total)
T27D0 000:841 JLINK_GetDebugInfo(0x100) -- Value=0xE00FF003  returns 0x00 (0000ms, 0611ms total)
T27D0 000:842 JLINK_ReadMem (0xE00FF000, 0x0020 Bytes, ...) -- CPU is running -- CPU_ReadMem(32 bytes @ 0xE00FF000) - Data: 03 F0 F0 FF 03 20 F0 FF 03 30 F0 FF 03 10 F0 FF ...  returns 0x00 (0001ms, 0612ms total)
T27D0 000:843 JLINK_ReadMem (0xE000EFF0, 0x0010 Bytes, ...) -- CPU is running -- CPU_ReadMem(16 bytes @ 0xE000EFF0) - Data: 0D 00 00 00 E0 00 00 00 05 00 00 00 B1 00 00 00  returns 0x00 (0001ms, 0613ms total)
T27D0 000:844 JLINK_ReadMem (0xE000EFD0, 0x0020 Bytes, ...) -- CPU is running -- CPU_ReadMem(32 bytes @ 0xE000EFD0) - Data: 04 00 00 00 00 00 00 00 00 00 00 00 00 00 00 00 ...  returns 0x00 (0001ms, 0614ms total)
T27D0 000:845 JLINK_ReadMem (0xE0001FF0, 0x0010 Bytes, ...) -- CPU is running -- CPU_ReadMem(16 bytes @ 0xE0001FF0) - Data: 0D 00 00 00 E0 00 00 00 05 00 00 00 B1 00 00 00  returns 0x00 (0000ms, 0614ms total)
T27D0 000:845 JLINK_ReadMem (0xE0001FD0, 0x0020 Bytes, ...) -- CPU is running -- CPU_ReadMem(32 bytes @ 0xE0001FD0) - Data: 04 00 00 00 00 00 00 00 00 00 00 00 00 00 00 00 ...  returns 0x00 (0001ms, 0615ms total)
T27D0 000:846 JLINK_ReadMem (0xE0002FF0, 0x0010 Bytes, ...) -- CPU is running -- CPU_ReadMem(16 bytes @ 0xE0002FF0) - Data: 0D 00 00 00 E0 00 00 00 05 00 00 00 B1 00 00 00  returns 0x00 (0001ms, 0616ms total)
T27D0 000:847 JLINK_ReadMem (0xE0002FD0, 0x0020 Bytes, ...) -- CPU is running -- CPU_ReadMem(32 bytes @ 0xE0002FD0) - Data: 04 00 00 00 00 00 00 00 00 00 00 00 00 00 00 00 ...  returns 0x00 (0000ms, 0616ms total)
T27D0 000:847 JLINK_ReadMem (0xE0000FF0, 0x0010 Bytes, ...) -- CPU is running -- CPU_ReadMem(16 bytes @ 0xE0000FF0) - Data: 0D 00 00 00 E0 00 00 00 05 00 00 00 B1 00 00 00  returns 0x00 (0001ms, 0617ms total)
T27D0 000:848 JLINK_ReadMem (0xE0000FD0, 0x0020 Bytes, ...) -- CPU is running -- CPU_ReadMem(32 bytes @ 0xE0000FD0) - Data: 04 00 00 00 00 00 00 00 00 00 00 00 00 00 00 00 ...  returns 0x00 (0001ms, 0618ms total)
T27D0 000:849 JLINK_ReadMem (0xE0040FF0, 0x0010 Bytes, ...) -- CPU is running -- CPU_ReadMem(16 bytes @ 0xE0040FF0) - Data: 0D 00 00 00 90 00 00 00 05 00 00 00 B1 00 00 00  returns 0x00 (0001ms, 0619ms total)
T27D0 000:850 JLINK_ReadMem (0xE0040FD0, 0x0020 Bytes, ...) -- CPU is running -- CPU_ReadMem(32 bytes @ 0xE0040FD0) - Data: 04 00 00 00 00 00 00 00 00 00 00 00 00 00 00 00 ...  returns 0x00 (0000ms, 0619ms total)
T27D0 000:850 JLINK_ReadMem (0xE0041FF0, 0x0010 Bytes, ...) -- CPU is running -- CPU_ReadMem(16 bytes @ 0xE0041FF0) - Data: 0D 00 00 00 90 00 00 00 05 00 00 00 B1 00 00 00  returns 0x00 (0001ms, 0620ms total)
T27D0 000:851 JLINK_ReadMem (0xE0041FD0, 0x0020 Bytes, ...) -- CPU is running -- CPU_ReadMem(32 bytes @ 0xE0041FD0) - Data: 04 00 00 00 00 00 00 00 00 00 00 00 00 00 00 00 ...  returns 0x00 (0001ms, 0621ms total)
T27D0 000:852 JLINK_ReadMemU32(0xE000EF40, 0x0001 Items, ...) -- CPU is running -- CPU_ReadMem(4 bytes @ 0xE000EF40) - Data: 21 00 11 10  returns 0x01 (0001ms, 0622ms total)
T27D0 000:853 JLINK_ReadMemU32(0xE000EF44, 0x0001 Items, ...) -- CPU is running -- CPU_ReadMem(4 bytes @ 0xE000EF44) - Data: 11 00 00 11  returns 0x01 (0000ms, 0622ms total)
T27D0 000:853 JLINK_ReadMemU32(0xE000ED00, 0x0001 Items, ...) -- CPU is running -- CPU_ReadMem(4 bytes @ 0xE000ED00) - Data: 41 C2 0F 41  returns 0x01 (0001ms, 0623ms total)
T27D0 000:854 JLINK_SetResetType(JLINKARM_RESET_TYPE_NORMAL)  returns JLINKARM_RESET_TYPE_NORMAL (0000ms, 0623ms total)
T27D0 000:854 JLINK_Reset() -- CPU is running -- CPU_WriteMem(4 bytes @ 0xE000EDF0) -- CPU is running -- CPU_WriteMem(4 bytes @ 0xE000EDFC) -- CPU is running -- CPU_WriteMem(4 bytes @ 0xE000ED0C) -- CPU is running -- CPU_ReadMem(4 bytes @ 0xE000EDF0) -- CPU is running -- CPU_ReadMem(4 bytes @ 0xE000EDF0) -- CPU is running -- CPU_WriteMem(4 bytes @ 0xE000EDF0) -- CPU is running -- CPU_WriteMem(4 bytes @ 0xE000EDFC) -- CPU is running -- CPU_ReadMem(4 bytes @ 0xE000EDF0) >0x80 JTAG> >0x40 JTAG> >0x30 JTAG>
 >0x40 JTAG> >0x50 JTAG> >0x40 JTAG> -- CPU_WriteMem(4 bytes @ 0xE000EDFC) -- CPU_WriteMem(4 bytes @ 0xE0001028) -- CPU_WriteMem(4 bytes @ 0xE0001038) -- CPU_WriteMem(4 bytes @ 0xE0001048) -- CPU_WriteMem(4 bytes @ 0xE0001058) -- CPU_WriteMem(4 bytes @ 0xE0002000) -- CPU_ReadMem(4 bytes @ 0xE000EDFC) -- CPU_ReadMem(4 bytes @ 0xE0001000) (0026ms, 0649ms total)
T27D0 000:880 JLINK_Halt()  returns 0x00 (0000ms, 0649ms total)
T27D0 000:880 JLINK_IsHalted()  returns TRUE (0000ms, 0649ms total)
T27D0 000:880 JLINK_ReadMemU32(0xE000EDF0, 0x0001 Items, ...) -- CPU_ReadMem(4 bytes @ 0xE000EDF0) - Data: 03 00 03 00  returns 0x01 (0001ms, 0650ms total)
T27D0 000:881 JLINK_WriteU32(0xE000EDF0, 0xA05F0003) -- CPU_WriteMem(4 bytes @ 0xE000EDF0)  returns 0x00 (0000ms, 0650ms total)
T27D0 000:881 JLINK_WriteU32(0xE000EDFC, 0x01000000) -- CPU_WriteMem(4 bytes @ 0xE000EDFC)  returns 0x00 (0001ms, 0651ms total)
T27D0 000:889 JLINK_GetHWStatus(...)  returns 0x00 (0001ms, 0652ms total)
T27D0 000:896 JLINK_GetNumBPUnits(Type = 0xFFFFFF00)  returns 0x06 (0000ms, 0652ms total)
T27D0 000:896 JLINK_GetNumBPUnits(Type = 0xF0)  returns 0x2000 (0001ms, 0653ms total)
T27D0 000:897 JLINK_GetNumWPUnits()  returns 0x04 (0000ms, 0653ms total)
T27D0 000:901 JLINK_GetSpeed()  returns 0x2EE0 (0000ms, 0653ms total)
T27D0 000:904 JLINK_ReadMemU32(0xE000E004, 0x0001 Items, ...) -- CPU_ReadMem(4 bytes @ 0xE000E004) - Data: 02 00 00 00  returns 0x01 (0001ms, 0655ms total)
T27D0 000:905 JLINK_ReadMemU32(0xE000E004, 0x0001 Items, ...) -- CPU_ReadMem(4 bytes @ 0xE000E004) - Data: 02 00 00 00  returns 0x01 (0001ms, 0656ms total)
T27D0 000:906 JLINK_WriteMem(0xE0001000, 0x001C Bytes, ...) - Data: 01 00 00 00 00 00 00 00 00 00 00 00 00 00 00 00 ... -- CPU_WriteMem(28 bytes @ 0xE0001000)  returns 0x1C (0001ms, 0657ms total)
T27D0 000:907 JLINK_ReadMem (0xE0001000, 0x001C Bytes, ...) -- CPU_ReadMem(28 bytes @ 0xE0001000) - Data: 01 00 00 40 00 00 00 00 00 00 00 00 00 00 00 00 ...  returns 0x00 (0001ms, 0658ms total)
T27D0 000:908 JLINK_Halt()  returns 0x00 (0000ms, 0658ms total)
T27D0 000:908 JLINK_IsHalted()  returns TRUE (0000ms, 0658ms total)
T27D0 000:909 JLINK_WriteMem(0x20000000, 0x0180 Bytes, ...) - Data: 00 BE 0A E0 0D 78 2D 06 68 40 08 24 40 00 00 D3 ... -- CPU_WriteMem(384 bytes @ 0x20000000)  returns 0x180 (0004ms, 0662ms total)
T27D0 000:913 JLINK_WriteReg(R0, 0x08000000)  returns 0x00 (0000ms, 0662ms total)
T27D0 000:913 JLINK_WriteReg(R1, 0x00B71B00)  returns 0x00 (0000ms, 0662ms total)
T27D0 000:913 JLINK_WriteReg(R2, 0x00000001)  returns 0x00 (0000ms, 0662ms total)
T27D0 000:913 JLINK_WriteReg(R3, 0x00000000)  returns 0x00 (0000ms, 0662ms total)
T27D0 000:913 JLINK_WriteReg(R4, 0x00000000)  returns 0x00 (0000ms, 0662ms total)
T27D0 000:913 JLINK_WriteReg(R5, 0x00000000)  returns 0x00 (0000ms, 0662ms total)
T27D0 000:913 JLINK_WriteReg(R6, 0x00000000)  returns 0x00 (0000ms, 0662ms total)
T27D0 000:913 JLINK_WriteReg(R7, 0x00000000)  returns 0x00 (0000ms, 0662ms total)
T27D0 000:913 JLINK_WriteReg(R8, 0x00000000)  returns 0x00 (0000ms, 0662ms total)
T27D0 000:913 JLINK_WriteReg(R9, 0x2000017C)  returns 0x00 (0000ms, 0662ms total)
T27D0 000:913 JLINK_WriteReg(R10, 0x00000000)  returns 0x00 (0000ms, 0662ms total)
T27D0 000:913 JLINK_WriteReg(R11, 0x00000000)  returns 0x00 (0000ms, 0662ms total)
T27D0 000:913 JLINK_WriteReg(R12, 0x00000000)  returns 0x00 (0000ms, 0662ms total)
T27D0 000:913 JLINK_WriteReg(R13 (SP), 0x20001000)  returns 0x00 (0000ms, 0662ms total)
T27D0 000:913 JLINK_WriteReg(R14, 0x20000001)  returns 0x00 (0000ms, 0662ms total)
T27D0 000:913 JLINK_WriteReg(R15 (PC), 0x20000054)  returns 0x00 (0000ms, 0662ms total)
T27D0 000:913 JLINK_WriteReg(XPSR, 0x01000000)  returns 0x00 (0000ms, 0662ms total)
T27D0 000:913 JLINK_WriteReg(MSP, 0x20001000)  returns 0x00 (0000ms, 0662ms total)
T27D0 000:913 JLINK_WriteReg(PSP, 0x20001000)  returns 0x00 (0000ms, 0662ms total)
T27D0 000:913 JLINK_WriteReg(CFBP, 0x00000000)  returns 0x00 (0000ms, 0662ms total)
T27D0 000:913 JLINK_SetBPEx(Addr = 0x20000000, Type = 0xFFFFFFF2) -- CPU_ReadMem(4 bytes @ 0x20000000) -- CPU_WriteMem(4 bytes @ 0x20000000) -- CPU_ReadMem(4 bytes @ 0x20000000) -- CPU_WriteMem(4 bytes @ 0x20000000) -- CPU_ReadMem(2 bytes @ 0x20000000)  returns 0x00000001 (0004ms, 0666ms total)
T27D0 000:917 JLINK_Go() -- CPU_WriteMem(2 bytes @ 0x20000000) -- CPU_WriteMem(4 bytes @ 0xE0002008) -- CPU_WriteMem(4 bytes @ 0xE000200C) -- CPU_WriteMem(4 bytes @ 0xE0002010) -- CPU_WriteMem(4 bytes @ 0xE0002014) -- CPU_WriteMem(4 bytes @ 0xE0002018) -- CPU_WriteMem(4 bytes @ 0xE000201C) -- CPU_WriteMem(4 bytes @ 0xE0001004) (0004ms, 0670ms total)
T27D0 000:921 JLINK_IsHalted() -- CPU_ReadMem(2 bytes @ 0x20000000)  returns TRUE (0003ms, 0673ms total)
T27D0 000:924 JLINK_ReadReg(R15 (PC))  returns 0x20000000 (0000ms, 0670ms total)
T27D0 000:924 JLINK_ClrBPEx(BPHandle = 0x00000001)  returns 0x00 (0000ms, 0670ms total)
T27D0 000:924 JLINK_ReadReg(R0)  returns 0x00000000 (0000ms, 0670ms total)
T27D0 000:925 JLINK_WriteReg(R0, 0x08000000)  returns 0x00 (0000ms, 0670ms total)
T27D0 000:925 JLINK_WriteReg(R1, 0x00004000)  returns 0x00 (0000ms, 0670ms total)
T27D0 000:925 JLINK_WriteReg(R2, 0x000000FF)  returns 0x00 (0000ms, 0670ms total)
T27D0 000:925 JLINK_WriteReg(R3, 0x00000000)  returns 0x00 (0000ms, 0670ms total)
T27D0 000:925 JLINK_WriteReg(R4, 0x00000000)  returns 0x00 (0000ms, 0670ms total)
T27D0 000:925 JLINK_WriteReg(R5, 0x00000000)  returns 0x00 (0000ms, 0670ms total)
T27D0 000:925 JLINK_WriteReg(R6, 0x00000000)  returns 0x00 (0000ms, 0670ms total)
T27D0 000:925 JLINK_WriteReg(R7, 0x00000000)  returns 0x00 (0000ms, 0670ms total)
T27D0 000:925 JLINK_WriteReg(R8, 0x00000000)  returns 0x00 (0000ms, 0670ms total)
T27D0 000:925 JLINK_WriteReg(R9, 0x2000017C)  returns 0x00 (0000ms, 0670ms total)
T27D0 000:925 JLINK_WriteReg(R10, 0x00000000)  returns 0x00 (0000ms, 0670ms total)
T27D0 000:925 JLINK_WriteReg(R11, 0x00000000)  returns 0x00 (0000ms, 0670ms total)
T27D0 000:925 JLINK_WriteReg(R12, 0x00000000)  returns 0x00 (0000ms, 0670ms total)
T27D0 000:925 JLINK_WriteReg(R13 (SP), 0x20001000)  returns 0x00 (0000ms, 0670ms total)
T27D0 000:925 JLINK_WriteReg(R14, 0x20000001)  returns 0x00 (0000ms, 0670ms total)
T27D0 000:925 JLINK_WriteReg(R15 (PC), 0x20000020)  returns 0x00 (0000ms, 0670ms total)
T27D0 000:925 JLINK_WriteReg(XPSR, 0x01000000)  returns 0x00 (0000ms, 0670ms total)
T27D0 000:925 JLINK_WriteReg(MSP, 0x20001000)  returns 0x00 (0000ms, 0670ms total)
T27D0 000:925 JLINK_WriteReg(PSP, 0x20001000)  returns 0x00 (0000ms, 0670ms total)
T27D0 000:925 JLINK_WriteReg(CFBP, 0x00000000)  returns 0x00 (0000ms, 0670ms total)
T27D0 000:925 JLINK_SetBPEx(Addr = 0x20000000, Type = 0xFFFFFFF2)  returns 0x00000002 (0000ms, 0670ms total)
T27D0 000:925 JLINK_Go() (0002ms, 0672ms total)
T27D0 000:927 JLINK_IsHalted() -- CPU_ReadMem(2 bytes @ 0x20000000)  returns TRUE (0003ms, 0675ms total)
T27D0 000:930 JLINK_ReadReg(R15 (PC))  returns 0x20000000 (0000ms, 0672ms total)
T27D0 000:930 JLINK_ClrBPEx(BPHandle = 0x00000002)  returns 0x00 (0000ms, 0672ms total)
T27D0 000:930 JLINK_ReadReg(R0)  returns 0x00000001 (0000ms, 0672ms total)
T27D0 000:930 JLINK_WriteReg(R0, 0x08000000)  returns 0x00 (0000ms, 0672ms total)
T27D0 000:930 JLINK_WriteReg(R1, 0x00004000)  returns 0x00 (0000ms, 0672ms total)
T27D0 000:930 JLINK_WriteReg(R2, 0x000000FF)  returns 0x00 (0000ms, 0672ms total)
T27D0 000:930 JLINK_WriteReg(R3, 0x00000000)  returns 0x00 (0000ms, 0672ms total)
T27D0 000:930 JLINK_WriteReg(R4, 0x00000000)  returns 0x00 (0000ms, 0672ms total)
T27D0 000:930 JLINK_WriteReg(R5, 0x00000000)  returns 0x00 (0000ms, 0672ms total)
T27D0 000:930 JLINK_WriteReg(R6, 0x00000000)  returns 0x00 (0000ms, 0672ms total)
T27D0 000:930 JLINK_WriteReg(R7, 0x00000000)  returns 0x00 (0000ms, 0672ms total)
T27D0 000:930 JLINK_WriteReg(R8, 0x00000000)  returns 0x00 (0000ms, 0672ms total)
T27D0 000:930 JLINK_WriteReg(R9, 0x2000017C)  returns 0x00 (0000ms, 0672ms total)
T27D0 000:930 JLINK_WriteReg(R10, 0x00000000)  returns 0x00 (0000ms, 0672ms total)
T27D0 000:930 JLINK_WriteReg(R11, 0x00000000)  returns 0x00 (0000ms, 0672ms total)
T27D0 000:930 JLINK_WriteReg(R12, 0x00000000)  returns 0x00 (0000ms, 0672ms total)
T27D0 000:930 JLINK_WriteReg(R13 (SP), 0x20001000)  returns 0x00 (0000ms, 0672ms total)
T27D0 000:930 JLINK_WriteReg(R14, 0x20000001)  returns 0x00 (0000ms, 0672ms total)
T27D0 000:930 JLINK_WriteReg(R15 (PC), 0x200000BC)  returns 0x00 (0000ms, 0672ms total)
T27D0 000:930 JLINK_WriteReg(XPSR, 0x01000000)  returns 0x00 (0000ms, 0672ms total)
T27D0 000:930 JLINK_WriteReg(MSP, 0x20001000)  returns 0x00 (0001ms, 0673ms total)
T27D0 000:931 JLINK_WriteReg(PSP, 0x20001000)  returns 0x00 (0000ms, 0673ms total)
T27D0 000:931 JLINK_WriteReg(CFBP, 0x00000000)  returns 0x00 (0000ms, 0673ms total)
T27D0 000:931 JLINK_SetBPEx(Addr = 0x20000000, Type = 0xFFFFFFF2)  returns 0x00000003 (0000ms, 0673ms total)
T27D0 000:931 JLINK_Go() (0001ms, 0674ms total)
T27D0 000:932 JLINK_IsHalted()  returns FALSE (0001ms, 0675ms total)
T27D0 001:183 JLINK_IsHalted()  returns FALSE (0000ms, 0674ms total)
T27D0 001:221 JLINK_IsHalted()  returns FALSE (0000ms, 0674ms total)
T27D0 001:222 JLINK_IsHalted()  returns FALSE (0000ms, 0674ms total)
T27D0 001:227 JLINK_IsHalted()  returns FALSE (0000ms, 0674ms total)
T27D0 001:228 JLINK_IsHalted()  returns FALSE (0000ms, 0674ms total)
T27D0 001:229 JLINK_IsHalted()  returns FALSE (0000ms, 0674ms total)
T27D0 001:230 JLINK_IsHalted()  returns FALSE (0000ms, 0674ms total)
T27D0 001:231 JLINK_IsHalted()  returns FALSE (0000ms, 0674ms total)
T27D0 001:232 JLINK_IsHalted()  returns FALSE (0000ms, 0674ms total)
T27D0 001:233 JLINK_IsHalted()  returns FALSE (0000ms, 0674ms total)
T27D0 001:234 JLINK_IsHalted()  returns FALSE (0000ms, 0674ms total)
T27D0 001:239 JLINK_IsHalted()  returns FALSE (0000ms, 0674ms total)
T27D0 001:240 JLINK_IsHalted()  returns FALSE (0000ms, 0674ms total)
T27D0 001:241 JLINK_IsHalted()  returns FALSE (0000ms, 0674ms total)
T27D0 001:242 JLINK_IsHalted()  returns FALSE (0000ms, 0674ms total)
T27D0 001:243 JLINK_IsHalted()  returns FALSE (0000ms, 0674ms total)
T27D0 001:244 JLINK_IsHalted()  returns FALSE (0000ms, 0674ms total)
T27D0 001:245 JLINK_IsHalted()  returns FALSE (0000ms, 0674ms total)
T27D0 001:246 JLINK_IsHalted()  returns FALSE (0000ms, 0674ms total)
T27D0 001:247 JLINK_IsHalted()  returns FALSE (0000ms, 0674ms total)
T27D0 001:248 JLINK_IsHalted()  returns FALSE (0000ms, 0674ms total)
T27D0 001:249 JLINK_IsHalted()  returns FALSE (0000ms, 0674ms total)
T27D0 001:250 JLINK_IsHalted()  returns FALSE (0000ms, 0674ms total)
T27D0 001:251 JLINK_IsHalted()  returns FALSE (0000ms, 0674ms total)
T27D0 001:252 JLINK_IsHalted()  returns FALSE (0000ms, 0674ms total)
T27D0 001:260 JLINK_IsHalted() -- CPU_ReadMem(2 bytes @ 0x20000000)  returns TRUE (0002ms, 0676ms total)
T27D0 001:262 JLINK_ReadReg(R15 (PC))  returns 0x20000000 (0000ms, 0674ms total)
T27D0 001:262 JLINK_ClrBPEx(BPHandle = 0x00000003)  returns 0x00 (0001ms, 0675ms total)
T27D0 001:263 JLINK_ReadReg(R0)  returns 0x00000000 (0000ms, 0675ms total)
T27D0 001:263 JLINK_WriteReg(R0, 0x00000001)  returns 0x00 (0000ms, 0675ms total)
T27D0 001:263 JLINK_WriteReg(R1, 0x00004000)  returns 0x00 (0000ms, 0675ms total)
T27D0 001:263 JLINK_WriteReg(R2, 0x000000FF)  returns 0x00 (0000ms, 0675ms total)
T27D0 001:263 JLINK_WriteReg(R3, 0x00000000)  returns 0x00 (0000ms, 0675ms total)
T27D0 001:263 JLINK_WriteReg(R4, 0x00000000)  returns 0x00 (0000ms, 0675ms total)
T27D0 001:263 JLINK_WriteReg(R5, 0x00000000)  returns 0x00 (0000ms, 0675ms total)
T27D0 001:263 JLINK_WriteReg(R6, 0x00000000)  returns 0x00 (0000ms, 0675ms total)
T27D0 001:263 JLINK_WriteReg(R7, 0x00000000)  returns 0x00 (0000ms, 0675ms total)
T27D0 001:263 JLINK_WriteReg(R8, 0x00000000)  returns 0x00 (0000ms, 0675ms total)
T27D0 001:263 JLINK_WriteReg(R9, 0x2000017C)  returns 0x00 (0000ms, 0675ms total)
T27D0 001:263 JLINK_WriteReg(R10, 0x00000000)  returns 0x00 (0000ms, 0675ms total)
T27D0 001:263 JLINK_WriteReg(R11, 0x00000000)  returns 0x00 (0000ms, 0675ms total)
T27D0 001:263 JLINK_WriteReg(R12, 0x00000000)  returns 0x00 (0000ms, 0675ms total)
T27D0 001:263 JLINK_WriteReg(R13 (SP), 0x20001000)  returns 0x00 (0000ms, 0675ms total)
T27D0 001:263 JLINK_WriteReg(R14, 0x20000001)  returns 0x00 (0000ms, 0675ms total)
T27D0 001:263 JLINK_WriteReg(R15 (PC), 0x20000082)  returns 0x00 (0000ms, 0675ms total)
T27D0 001:263 JLINK_WriteReg(XPSR, 0x01000000)  returns 0x00 (0000ms, 0675ms total)
T27D0 001:263 JLINK_WriteReg(MSP, 0x20001000)  returns 0x00 (0000ms, 0675ms total)
T27D0 001:263 JLINK_WriteReg(PSP, 0x20001000)  returns 0x00 (0000ms, 0675ms total)
T27D0 001:263 JLINK_WriteReg(CFBP, 0x00000000)  returns 0x00 (0000ms, 0675ms total)
T27D0 001:264 JLINK_SetBPEx(Addr = 0x20000000, Type = 0xFFFFFFF2)  returns 0x00000004 (0000ms, 0675ms total)
T27D0 001:264 JLINK_Go() (0001ms, 0676ms total)
T27D0 001:265 JLINK_IsHalted() -- CPU_ReadMem(2 bytes @ 0x20000000)  returns TRUE (0003ms, 0679ms total)
T27D0 001:268 JLINK_ReadReg(R15 (PC))  returns 0x20000000 (0000ms, 0676ms total)
T27D0 001:268 JLINK_ClrBPEx(BPHandle = 0x00000004)  returns 0x00 (0000ms, 0676ms total)
T27D0 001:268 JLINK_ReadReg(R0)  returns 0x00000000 (0000ms, 0676ms total)
T27D0 001:331 JLINK_WriteMem(0x20000000, 0x0180 Bytes, ...) - Data: 00 BE 0A E0 0D 78 2D 06 68 40 08 24 40 00 00 D3 ... -- CPU_WriteMem(384 bytes @ 0x20000000)  returns 0x180 (0003ms, 0679ms total)
T27D0 001:334 JLINK_WriteReg(R0, 0x08000000)  returns 0x00 (0000ms, 0679ms total)
T27D0 001:334 JLINK_WriteReg(R1, 0x00B71B00)  returns 0x00 (0000ms, 0679ms total)
T27D0 001:334 JLINK_WriteReg(R2, 0x00000002)  returns 0x00 (0000ms, 0679ms total)
T27D0 001:334 JLINK_WriteReg(R3, 0x00000000)  returns 0x00 (0000ms, 0679ms total)
T27D0 001:334 JLINK_WriteReg(R4, 0x00000000)  returns 0x00 (0000ms, 0679ms total)
T27D0 001:334 JLINK_WriteReg(R5, 0x00000000)  returns 0x00 (0000ms, 0679ms total)
T27D0 001:334 JLINK_WriteReg(R6, 0x00000000)  returns 0x00 (0000ms, 0679ms total)
T27D0 001:334 JLINK_WriteReg(R7, 0x00000000)  returns 0x00 (0000ms, 0679ms total)
T27D0 001:334 JLINK_WriteReg(R8, 0x00000000)  returns 0x00 (0000ms, 0679ms total)
T27D0 001:335 JLINK_WriteReg(R9, 0x2000017C)  returns 0x00 (0000ms, 0680ms total)
T27D0 001:335 JLINK_WriteReg(R10, 0x00000000)  returns 0x00 (0000ms, 0680ms total)
T27D0 001:335 JLINK_WriteReg(R11, 0x00000000)  returns 0x00 (0000ms, 0680ms total)
T27D0 001:335 JLINK_WriteReg(R12, 0x00000000)  returns 0x00 (0000ms, 0680ms total)
T27D0 001:335 JLINK_WriteReg(R13 (SP), 0x20001000)  returns 0x00 (0000ms, 0680ms total)
T27D0 001:335 JLINK_WriteReg(R14, 0x20000001)  returns 0x00 (0000ms, 0680ms total)
T27D0 001:335 JLINK_WriteReg(R15 (PC), 0x20000054)  returns 0x00 (0000ms, 0680ms total)
T27D0 001:335 JLINK_WriteReg(XPSR, 0x01000000)  returns 0x00 (0000ms, 0680ms total)
T27D0 001:335 JLINK_WriteReg(MSP, 0x20001000)  returns 0x00 (0000ms, 0680ms total)
T27D0 001:335 JLINK_WriteReg(PSP, 0x20001000)  returns 0x00 (0000ms, 0680ms total)
T27D0 001:335 JLINK_WriteReg(CFBP, 0x00000000)  returns 0x00 (0000ms, 0680ms total)
T27D0 001:335 JLINK_SetBPEx(Addr = 0x20000000, Type = 0xFFFFFFF2) -- CPU_ReadMem(4 bytes @ 0x20000000) -- CPU_WriteMem(4 bytes @ 0x20000000) -- CPU_ReadMem(4 bytes @ 0x20000000) -- CPU_WriteMem(4 bytes @ 0x20000000) -- CPU_ReadMem(2 bytes @ 0x20000000)  returns 0x00000005 (0003ms, 0683ms total)
T27D0 001:338 JLINK_Go() -- CPU_WriteMem(2 bytes @ 0x20000000) (0002ms, 0685ms total)
T27D0 001:340 JLINK_IsHalted() -- CPU_ReadMem(2 bytes @ 0x20000000)  returns TRUE (0004ms, 0689ms total)
T27D0 001:344 JLINK_ReadReg(R15 (PC))  returns 0x20000000 (0000ms, 0685ms total)
T27D0 001:344 JLINK_ClrBPEx(BPHandle = 0x00000005)  returns 0x00 (0000ms, 0685ms total)
T27D0 001:344 JLINK_ReadReg(R0)  returns 0x00000000 (0000ms, 0685ms total)
T27D0 001:344 JLINK_WriteMem(0x20000180, 0x0400 Bytes, ...) - Data: 70 1D 00 20 29 02 00 08 3D 05 00 08 4B 03 00 08 ... -- CPU_WriteMem(1024 bytes @ 0x20000180)  returns 0x400 (0005ms, 0690ms total)
T27D0 001:349 JLINK_WriteReg(R0, 0x08000000)  returns 0x00 (0000ms, 0690ms total)
T27D0 001:349 JLINK_WriteReg(R1, 0x00000400)  returns 0x00 (0000ms, 0690ms total)
T27D0 001:350 JLINK_WriteReg(R2, 0x20000180)  returns 0x00 (0000ms, 0691ms total)
T27D0 001:350 JLINK_WriteReg(R3, 0x00000000)  returns 0x00 (0000ms, 0691ms total)
T27D0 001:350 JLINK_WriteReg(R4, 0x00000000)  returns 0x00 (0000ms, 0691ms total)
T27D0 001:350 JLINK_WriteReg(R5, 0x00000000)  returns 0x00 (0000ms, 0691ms total)
T27D0 001:350 JLINK_WriteReg(R6, 0x00000000)  returns 0x00 (0000ms, 0691ms total)
T27D0 001:350 JLINK_WriteReg(R7, 0x00000000)  returns 0x00 (0000ms, 0691ms total)
T27D0 001:350 JLINK_WriteReg(R8, 0x00000000)  returns 0x00 (0000ms, 0691ms total)
T27D0 001:350 JLINK_WriteReg(R9, 0x2000017C)  returns 0x00 (0000ms, 0691ms total)
T27D0 001:350 JLINK_WriteReg(R10, 0x00000000)  returns 0x00 (0000ms, 0691ms total)
T27D0 001:350 JLINK_WriteReg(R11, 0x00000000)  returns 0x00 (0000ms, 0691ms total)
T27D0 001:350 JLINK_WriteReg(R12, 0x00000000)  returns 0x00 (0000ms, 0691ms total)
T27D0 001:350 JLINK_WriteReg(R13 (SP), 0x20001000)  returns 0x00 (0000ms, 0691ms total)
T27D0 001:350 JLINK_WriteReg(R14, 0x20000001)  returns 0x00 (0000ms, 0691ms total)
T27D0 001:350 JLINK_WriteReg(R15 (PC), 0x20000108)  returns 0x00 (0000ms, 0691ms total)
T27D0 001:350 JLINK_WriteReg(XPSR, 0x01000000)  returns 0x00 (0000ms, 0691ms total)
T27D0 001:350 JLINK_WriteReg(MSP, 0x20001000)  returns 0x00 (0000ms, 0691ms total)
T27D0 001:350 JLINK_WriteReg(PSP, 0x20001000)  returns 0x00 (0000ms, 0691ms total)
T27D0 001:350 JLINK_WriteReg(CFBP, 0x00000000)  returns 0x00 (0000ms, 0691ms total)
T27D0 001:350 JLINK_SetBPEx(Addr = 0x20000000, Type = 0xFFFFFFF2)  returns 0x00000006 (0000ms, 0691ms total)
T27D0 001:350 JLINK_Go() (0002ms, 0693ms total)
T27D0 001:352 JLINK_IsHalted()  returns FALSE (0001ms, 0694ms total)
T27D0 001:372 JLINK_IsHalted() -- CPU_ReadMem(2 bytes @ 0x20000000)  returns TRUE (0003ms, 0696ms total)
T27D0 001:375 JLINK_ReadReg(R15 (PC))  returns 0x20000000 (0000ms, 0693ms total)
T27D0 001:375 JLINK_ClrBPEx(BPHandle = 0x00000006)  returns 0x00 (0000ms, 0693ms total)
T27D0 001:375 JLINK_ReadReg(R0)  returns 0x00000000 (0000ms, 0693ms total)
T27D0 001:375 JLINK_WriteMem(0x20000180, 0x0400 Bytes, ...) - Data: 00 21 00 23 00 24 00 BF 3D E0 01 25 05 FA 01 F3 ... -- CPU_WriteMem(1024 bytes @ 0x20000180)  returns 0x400 (0006ms, 0699ms total)
T27D0 001:381 JLINK_WriteReg(R0, 0x08000400)  returns 0x00 (0000ms, 0699ms total)
T27D0 001:381 JLINK_WriteReg(R1, 0x00000400)  returns 0x00 (0000ms, 0699ms total)
T27D0 001:381 JLINK_WriteReg(R2, 0x20000180)  returns 0x00 (0000ms, 0699ms total)
T27D0 001:381 JLINK_WriteReg(R3, 0x00000000)  returns 0x00 (0000ms, 0699ms total)
T27D0 001:381 JLINK_WriteReg(R4, 0x00000000)  returns 0x00 (0000ms, 0699ms total)
T27D0 001:381 JLINK_WriteReg(R5, 0x00000000)  returns 0x00 (0000ms, 0699ms total)
T27D0 001:381 JLINK_WriteReg(R6, 0x00000000)  returns 0x00 (0000ms, 0699ms total)
T27D0 001:381 JLINK_WriteReg(R7, 0x00000000)  returns 0x00 (0000ms, 0699ms total)
T27D0 001:381 JLINK_WriteReg(R8, 0x00000000)  returns 0x00 (0000ms, 0699ms total)
T27D0 001:381 JLINK_WriteReg(R9, 0x2000017C)  returns 0x00 (0000ms, 0699ms total)
T27D0 001:381 JLINK_WriteReg(R10, 0x00000000)  returns 0x00 (0000ms, 0699ms total)
T27D0 001:381 JLINK_WriteReg(R11, 0x00000000)  returns 0x00 (0000ms, 0699ms total)
T27D0 001:381 JLINK_WriteReg(R12, 0x00000000)  returns 0x00 (0001ms, 0700ms total)
T27D0 001:382 JLINK_WriteReg(R13 (SP), 0x20001000)  returns 0x00 (0000ms, 0700ms total)
T27D0 001:382 JLINK_WriteReg(R14, 0x20000001)  returns 0x00 (0000ms, 0700ms total)
T27D0 001:382 JLINK_WriteReg(R15 (PC), 0x20000108)  returns 0x00 (0000ms, 0700ms total)
T27D0 001:382 JLINK_WriteReg(XPSR, 0x01000000)  returns 0x00 (0000ms, 0700ms total)
T27D0 001:382 JLINK_WriteReg(MSP, 0x20001000)  returns 0x00 (0000ms, 0700ms total)
T27D0 001:382 JLINK_WriteReg(PSP, 0x20001000)  returns 0x00 (0000ms, 0700ms total)
T27D0 001:382 JLINK_WriteReg(CFBP, 0x00000000)  returns 0x00 (0000ms, 0700ms total)
T27D0 001:382 JLINK_SetBPEx(Addr = 0x20000000, Type = 0xFFFFFFF2)  returns 0x00000007 (0000ms, 0700ms total)
T27D0 001:382 JLINK_Go() (0001ms, 0701ms total)
T27D0 001:383 JLINK_IsHalted()  returns FALSE (0001ms, 0702ms total)
T27D0 001:401 JLINK_IsHalted() -- CPU_ReadMem(2 bytes @ 0x20000000)  returns TRUE (0003ms, 0704ms total)
T27D0 001:404 JLINK_ReadReg(R15 (PC))  returns 0x20000000 (0000ms, 0701ms total)
T27D0 001:404 JLINK_ClrBPEx(BPHandle = 0x00000007)  returns 0x00 (0000ms, 0701ms total)
T27D0 001:404 JLINK_ReadReg(R0)  returns 0x00000000 (0000ms, 0701ms total)
T27D0 001:405 JLINK_WriteMem(0x20000180, 0x0400 Bytes, ...) - Data: 09 D1 32 48 C0 78 32 49 0C 54 01 20 2F 49 C8 70 ... -- CPU_WriteMem(1024 bytes @ 0x20000180)  returns 0x400 (0005ms, 0706ms total)
T27D0 001:410 JLINK_WriteReg(R0, 0x08000800)  returns 0x00 (0000ms, 0706ms total)
T27D0 001:410 JLINK_WriteReg(R1, 0x00000400)  returns 0x00 (0000ms, 0706ms total)
T27D0 001:410 JLINK_WriteReg(R2, 0x20000180)  returns 0x00 (0000ms, 0706ms total)
T27D0 001:410 JLINK_WriteReg(R3, 0x00000000)  returns 0x00 (0000ms, 0706ms total)
T27D0 001:410 JLINK_WriteReg(R4, 0x00000000)  returns 0x00 (0000ms, 0706ms total)
T27D0 001:410 JLINK_WriteReg(R5, 0x00000000)  returns 0x00 (0000ms, 0706ms total)
T27D0 001:410 JLINK_WriteReg(R6, 0x00000000)  returns 0x00 (0000ms, 0706ms total)
T27D0 001:410 JLINK_WriteReg(R7, 0x00000000)  returns 0x00 (0000ms, 0706ms total)
T27D0 001:410 JLINK_WriteReg(R8, 0x00000000)  returns 0x00 (0000ms, 0706ms total)
T27D0 001:410 JLINK_WriteReg(R9, 0x2000017C)  returns 0x00 (0001ms, 0707ms total)
T27D0 001:411 JLINK_WriteReg(R10, 0x00000000)  returns 0x00 (0000ms, 0707ms total)
T27D0 001:411 JLINK_WriteReg(R11, 0x00000000)  returns 0x00 (0000ms, 0707ms total)
T27D0 001:411 JLINK_WriteReg(R12, 0x00000000)  returns 0x00 (0000ms, 0707ms total)
T27D0 001:411 JLINK_WriteReg(R13 (SP), 0x20001000)  returns 0x00 (0000ms, 0707ms total)
T27D0 001:411 JLINK_WriteReg(R14, 0x20000001)  returns 0x00 (0000ms, 0707ms total)
T27D0 001:411 JLINK_WriteReg(R15 (PC), 0x20000108)  returns 0x00 (0000ms, 0707ms total)
T27D0 001:411 JLINK_WriteReg(XPSR, 0x01000000)  returns 0x00 (0000ms, 0707ms total)
T27D0 001:411 JLINK_WriteReg(MSP, 0x20001000)  returns 0x00 (0000ms, 0707ms total)
T27D0 001:411 JLINK_WriteReg(PSP, 0x20001000)  returns 0x00 (0000ms, 0707ms total)
T27D0 001:411 JLINK_WriteReg(CFBP, 0x00000000)  returns 0x00 (0000ms, 0707ms total)
T27D0 001:411 JLINK_SetBPEx(Addr = 0x20000000, Type = 0xFFFFFFF2)  returns 0x00000008 (0000ms, 0707ms total)
T27D0 001:411 JLINK_Go() (0001ms, 0708ms total)
T27D0 001:413 JLINK_IsHalted()  returns FALSE (0000ms, 0709ms total)
T27D0 001:418 JLINK_IsHalted() -- CPU_ReadMem(2 bytes @ 0x20000000)  returns TRUE (0003ms, 0712ms total)
T27D0 001:421 JLINK_ReadReg(R15 (PC))  returns 0x20000000 (0000ms, 0709ms total)
T27D0 001:421 JLINK_ClrBPEx(BPHandle = 0x00000008)  returns 0x00 (0000ms, 0709ms total)
T27D0 001:421 JLINK_ReadReg(R0)  returns 0x00000000 (0000ms, 0709ms total)
T27D0 001:421 JLINK_WriteMem(0x20000180, 0x0400 Bytes, ...) - Data: 23 28 16 D0 25 28 50 D0 26 28 61 D1 23 E0 24 2C ... -- CPU_WriteMem(1024 bytes @ 0x20000180)  returns 0x400 (0005ms, 0714ms total)
T27D0 001:426 JLINK_WriteReg(R0, 0x08000C00)  returns 0x00 (0000ms, 0714ms total)
T27D0 001:426 JLINK_WriteReg(R1, 0x00000400)  returns 0x00 (0000ms, 0714ms total)
T27D0 001:426 JLINK_WriteReg(R2, 0x20000180)  returns 0x00 (0000ms, 0714ms total)
T27D0 001:427 JLINK_WriteReg(R3, 0x00000000)  returns 0x00 (0000ms, 0715ms total)
T27D0 001:427 JLINK_WriteReg(R4, 0x00000000)  returns 0x00 (0000ms, 0715ms total)
T27D0 001:427 JLINK_WriteReg(R5, 0x00000000)  returns 0x00 (0000ms, 0715ms total)
T27D0 001:427 JLINK_WriteReg(R6, 0x00000000)  returns 0x00 (0000ms, 0715ms total)
T27D0 001:427 JLINK_WriteReg(R7, 0x00000000)  returns 0x00 (0000ms, 0715ms total)
T27D0 001:427 JLINK_WriteReg(R8, 0x00000000)  returns 0x00 (0000ms, 0715ms total)
T27D0 001:427 JLINK_WriteReg(R9, 0x2000017C)  returns 0x00 (0000ms, 0715ms total)
T27D0 001:427 JLINK_WriteReg(R10, 0x00000000)  returns 0x00 (0000ms, 0715ms total)
T27D0 001:427 JLINK_WriteReg(R11, 0x00000000)  returns 0x00 (0000ms, 0715ms total)
T27D0 001:427 JLINK_WriteReg(R12, 0x00000000)  returns 0x00 (0000ms, 0715ms total)
T27D0 001:427 JLINK_WriteReg(R13 (SP), 0x20001000)  returns 0x00 (0000ms, 0715ms total)
T27D0 001:427 JLINK_WriteReg(R14, 0x20000001)  returns 0x00 (0000ms, 0715ms total)
T27D0 001:427 JLINK_WriteReg(R15 (PC), 0x20000108)  returns 0x00 (0000ms, 0715ms total)
T27D0 001:427 JLINK_WriteReg(XPSR, 0x01000000)  returns 0x00 (0000ms, 0715ms total)
T27D0 001:427 JLINK_WriteReg(MSP, 0x20001000)  returns 0x00 (0000ms, 0715ms total)
T27D0 001:427 JLINK_WriteReg(PSP, 0x20001000)  returns 0x00 (0000ms, 0715ms total)
T27D0 001:427 JLINK_WriteReg(CFBP, 0x00000000)  returns 0x00 (0000ms, 0715ms total)
T27D0 001:427 JLINK_SetBPEx(Addr = 0x20000000, Type = 0xFFFFFFF2)  returns 0x00000009 (0000ms, 0715ms total)
T27D0 001:427 JLINK_Go() (0001ms, 0716ms total)
T27D0 001:428 JLINK_IsHalted()  returns FALSE (0001ms, 0717ms total)
T27D0 001:435 JLINK_IsHalted() -- CPU_ReadMem(2 bytes @ 0x20000000)  returns TRUE (0003ms, 0719ms total)
T27D0 001:438 JLINK_ReadReg(R15 (PC))  returns 0x20000000 (0000ms, 0716ms total)
T27D0 001:438 JLINK_ClrBPEx(BPHandle = 0x00000009)  returns 0x00 (0000ms, 0716ms total)
T27D0 001:438 JLINK_ReadReg(R0)  returns 0x00000000 (0000ms, 0716ms total)
T27D0 001:438 JLINK_WriteMem(0x20000180, 0x0400 Bytes, ...) - Data: 0C 00 0C 20 AD F8 0A 00 69 46 0A 48 FF F7 54 FF ... -- CPU_WriteMem(1024 bytes @ 0x20000180)  returns 0x400 (0006ms, 0722ms total)
T27D0 001:444 JLINK_WriteReg(R0, 0x08001000)  returns 0x00 (0000ms, 0722ms total)
T27D0 001:444 JLINK_WriteReg(R1, 0x00000400)  returns 0x00 (0000ms, 0722ms total)
T27D0 001:444 JLINK_WriteReg(R2, 0x20000180)  returns 0x00 (0000ms, 0722ms total)
T27D0 001:444 JLINK_WriteReg(R3, 0x00000000)  returns 0x00 (0000ms, 0722ms total)
T27D0 001:444 JLINK_WriteReg(R4, 0x00000000)  returns 0x00 (0000ms, 0722ms total)
T27D0 001:444 JLINK_WriteReg(R5, 0x00000000)  returns 0x00 (0000ms, 0722ms total)
T27D0 001:444 JLINK_WriteReg(R6, 0x00000000)  returns 0x00 (0000ms, 0722ms total)
T27D0 001:444 JLINK_WriteReg(R7, 0x00000000)  returns 0x00 (0000ms, 0722ms total)
T27D0 001:444 JLINK_WriteReg(R8, 0x00000000)  returns 0x00 (0000ms, 0722ms total)
T27D0 001:444 JLINK_WriteReg(R9, 0x2000017C)  returns 0x00 (0000ms, 0722ms total)
T27D0 001:444 JLINK_WriteReg(R10, 0x00000000)  returns 0x00 (0000ms, 0722ms total)
T27D0 001:444 JLINK_WriteReg(R11, 0x00000000)  returns 0x00 (0000ms, 0722ms total)
T27D0 001:444 JLINK_WriteReg(R12, 0x00000000)  returns 0x00 (0000ms, 0722ms total)
T27D0 001:444 JLINK_WriteReg(R13 (SP), 0x20001000)  returns 0x00 (0000ms, 0722ms total)
T27D0 001:444 JLINK_WriteReg(R14, 0x20000001)  returns 0x00 (0000ms, 0722ms total)
T27D0 001:444 JLINK_WriteReg(R15 (PC), 0x20000108)  returns 0x00 (0000ms, 0722ms total)
T27D0 001:444 JLINK_WriteReg(XPSR, 0x01000000)  returns 0x00 (0000ms, 0722ms total)
T27D0 001:444 JLINK_WriteReg(MSP, 0x20001000)  returns 0x00 (0000ms, 0722ms total)
T27D0 001:444 JLINK_WriteReg(PSP, 0x20001000)  returns 0x00 (0000ms, 0722ms total)
T27D0 001:444 JLINK_WriteReg(CFBP, 0x00000000)  returns 0x00 (0000ms, 0722ms total)
T27D0 001:444 JLINK_SetBPEx(Addr = 0x20000000, Type = 0xFFFFFFF2)  returns 0x0000000A (0000ms, 0722ms total)
T27D0 001:444 JLINK_Go() (0002ms, 0724ms total)
T27D0 001:446 JLINK_IsHalted()  returns FALSE (0001ms, 0725ms total)
T27D0 001:452 JLINK_IsHalted() -- CPU_ReadMem(2 bytes @ 0x20000000)  returns TRUE (0003ms, 0727ms total)
T27D0 001:455 JLINK_ReadReg(R15 (PC))  returns 0x20000000 (0000ms, 0724ms total)
T27D0 001:455 JLINK_ClrBPEx(BPHandle = 0x0000000A)  returns 0x00 (0000ms, 0724ms total)
T27D0 001:455 JLINK_ReadReg(R0)  returns 0x00000000 (0000ms, 0724ms total)
T27D0 001:456 JLINK_WriteMem(0x20000180, 0x0400 Bytes, ...) - Data: 09 F8 08 B0 1D E0 1A E0 E1 46 B9 F1 0A 0F 08 D1 ... -- CPU_WriteMem(1024 bytes @ 0x20000180)  returns 0x400 (0005ms, 0729ms total)
T27D0 001:461 JLINK_WriteReg(R0, 0x08001400)  returns 0x00 (0000ms, 0729ms total)
T27D0 001:461 JLINK_WriteReg(R1, 0x00000400)  returns 0x00 (0000ms, 0729ms total)
T27D0 001:461 JLINK_WriteReg(R2, 0x20000180)  returns 0x00 (0000ms, 0729ms total)
T27D0 001:461 JLINK_WriteReg(R3, 0x00000000)  returns 0x00 (0000ms, 0729ms total)
T27D0 001:461 JLINK_WriteReg(R4, 0x00000000)  returns 0x00 (0000ms, 0729ms total)
T27D0 001:461 JLINK_WriteReg(R5, 0x00000000)  returns 0x00 (0000ms, 0729ms total)
T27D0 001:461 JLINK_WriteReg(R6, 0x00000000)  returns 0x00 (0000ms, 0729ms total)
T27D0 001:461 JLINK_WriteReg(R7, 0x00000000)  returns 0x00 (0000ms, 0729ms total)
T27D0 001:461 JLINK_WriteReg(R8, 0x00000000)  returns 0x00 (0000ms, 0729ms total)
T27D0 001:461 JLINK_WriteReg(R9, 0x2000017C)  returns 0x00 (0000ms, 0729ms total)
T27D0 001:461 JLINK_WriteReg(R10, 0x00000000)  returns 0x00 (0000ms, 0729ms total)
T27D0 001:461 JLINK_WriteReg(R11, 0x00000000)  returns 0x00 (0000ms, 0729ms total)
T27D0 001:461 JLINK_WriteReg(R12, 0x00000000)  returns 0x00 (0000ms, 0729ms total)
T27D0 001:461 JLINK_WriteReg(R13 (SP), 0x20001000)  returns 0x00 (0000ms, 0729ms total)
T27D0 001:461 JLINK_WriteReg(R14, 0x20000001)  returns 0x00 (0000ms, 0729ms total)
T27D0 001:461 JLINK_WriteReg(R15 (PC), 0x20000108)  returns 0x00 (0000ms, 0729ms total)
T27D0 001:461 JLINK_WriteReg(XPSR, 0x01000000)  returns 0x00 (0001ms, 0730ms total)
T27D0 001:462 JLINK_WriteReg(MSP, 0x20001000)  returns 0x00 (0000ms, 0730ms total)
T27D0 001:462 JLINK_WriteReg(PSP, 0x20001000)  returns 0x00 (0000ms, 0730ms total)
T27D0 001:462 JLINK_WriteReg(CFBP, 0x00000000)  returns 0x00 (0000ms, 0730ms total)
T27D0 001:462 JLINK_SetBPEx(Addr = 0x20000000, Type = 0xFFFFFFF2)  returns 0x0000000B (0000ms, 0730ms total)
T27D0 001:462 JLINK_Go() (0001ms, 0731ms total)
T27D0 001:463 JLINK_IsHalted()  returns FALSE (0001ms, 0732ms total)
T27D0 001:469 JLINK_IsHalted() -- CPU_ReadMem(2 bytes @ 0x20000000)  returns TRUE (0003ms, 0734ms total)
T27D0 001:472 JLINK_ReadReg(R15 (PC))  returns 0x20000000 (0000ms, 0731ms total)
T27D0 001:472 JLINK_ClrBPEx(BPHandle = 0x0000000B)  returns 0x00 (0000ms, 0731ms total)
T27D0 001:472 JLINK_ReadReg(R0)  returns 0x00000000 (0000ms, 0731ms total)
T27D0 001:472 JLINK_WriteMem(0x20000180, 0x0400 Bytes, ...) - Data: 20 70 63 3A 20 30 78 25 30 38 78 0A 00 00 00 00 ... -- CPU_WriteMem(1024 bytes @ 0x20000180)  returns 0x400 (0006ms, 0737ms total)
T27D0 001:478 JLINK_WriteReg(R0, 0x08001800)  returns 0x00 (0000ms, 0737ms total)
T27D0 001:478 JLINK_WriteReg(R1, 0x00000400)  returns 0x00 (0000ms, 0737ms total)
T27D0 001:478 JLINK_WriteReg(R2, 0x20000180)  returns 0x00 (0000ms, 0737ms total)
T27D0 001:478 JLINK_WriteReg(R3, 0x00000000)  returns 0x00 (0000ms, 0737ms total)
T27D0 001:478 JLINK_WriteReg(R4, 0x00000000)  returns 0x00 (0000ms, 0737ms total)
T27D0 001:478 JLINK_WriteReg(R5, 0x00000000)  returns 0x00 (0000ms, 0737ms total)
T27D0 001:478 JLINK_WriteReg(R6, 0x00000000)  returns 0x00 (0000ms, 0737ms total)
T27D0 001:478 JLINK_WriteReg(R7, 0x00000000)  returns 0x00 (0000ms, 0737ms total)
T27D0 001:478 JLINK_WriteReg(R8, 0x00000000)  returns 0x00 (0000ms, 0737ms total)
T27D0 001:478 JLINK_WriteReg(R9, 0x2000017C)  returns 0x00 (0001ms, 0738ms total)
T27D0 001:479 JLINK_WriteReg(R10, 0x00000000)  returns 0x00 (0000ms, 0738ms total)
T27D0 001:479 JLINK_WriteReg(R11, 0x00000000)  returns 0x00 (0000ms, 0738ms total)
T27D0 001:479 JLINK_WriteReg(R12, 0x00000000)  returns 0x00 (0000ms, 0738ms total)
T27D0 001:479 JLINK_WriteReg(R13 (SP), 0x20001000)  returns 0x00 (0000ms, 0738ms total)
T27D0 001:479 JLINK_WriteReg(R14, 0x20000001)  returns 0x00 (0000ms, 0738ms total)
T27D0 001:479 JLINK_WriteReg(R15 (PC), 0x20000108)  returns 0x00 (0000ms, 0738ms total)
T27D0 001:479 JLINK_WriteReg(XPSR, 0x01000000)  returns 0x00 (0000ms, 0738ms total)
T27D0 001:479 JLINK_WriteReg(MSP, 0x20001000)  returns 0x00 (0000ms, 0738ms total)
T27D0 001:479 JLINK_WriteReg(PSP, 0x20001000)  returns 0x00 (0000ms, 0738ms total)
T27D0 001:479 JLINK_WriteReg(CFBP, 0x00000000)  returns 0x00 (0000ms, 0738ms total)
T27D0 001:479 JLINK_SetBPEx(Addr = 0x20000000, Type = 0xFFFFFFF2)  returns 0x0000000C (0000ms, 0738ms total)
T27D0 001:479 JLINK_Go() (0002ms, 0740ms total)
T27D0 001:481 JLINK_IsHalted()  returns FALSE (0000ms, 0740ms total)
T27D0 001:490 JLINK_IsHalted() -- CPU_ReadMem(2 bytes @ 0x20000000)  returns TRUE (0003ms, 0743ms total)
T27D0 001:493 JLINK_ReadReg(R15 (PC))  returns 0x20000000 (0000ms, 0740ms total)
T27D0 001:493 JLINK_ClrBPEx(BPHandle = 0x0000000C)  returns 0x00 (0000ms, 0740ms total)
T27D0 001:493 JLINK_ReadReg(R0)  returns 0x00000000 (0000ms, 0740ms total)
T27D0 001:493 JLINK_WriteMem(0x20000180, 0x0400 Bytes, ...) - Data: 10 2A F8 D2 01 E0 08 C1 12 1F 04 2A FB D2 0D 46 ... -- CPU_WriteMem(1024 bytes @ 0x20000180)  returns 0x400 (0005ms, 0745ms total)
T27D0 001:498 JLINK_WriteReg(R0, 0x08001C00)  returns 0x00 (0001ms, 0746ms total)
T27D0 001:499 JLINK_WriteReg(R1, 0x00000400)  returns 0x00 (0000ms, 0746ms total)
T27D0 001:499 JLINK_WriteReg(R2, 0x20000180)  returns 0x00 (0000ms, 0746ms total)
T27D0 001:499 JLINK_WriteReg(R3, 0x00000000)  returns 0x00 (0000ms, 0746ms total)
T27D0 001:499 JLINK_WriteReg(R4, 0x00000000)  returns 0x00 (0000ms, 0746ms total)
T27D0 001:499 JLINK_WriteReg(R5, 0x00000000)  returns 0x00 (0000ms, 0746ms total)
T27D0 001:499 JLINK_WriteReg(R6, 0x00000000)  returns 0x00 (0000ms, 0746ms total)
T27D0 001:499 JLINK_WriteReg(R7, 0x00000000)  returns 0x00 (0000ms, 0746ms total)
T27D0 001:499 JLINK_WriteReg(R8, 0x00000000)  returns 0x00 (0000ms, 0746ms total)
T27D0 001:499 JLINK_WriteReg(R9, 0x2000017C)  returns 0x00 (0000ms, 0746ms total)
T27D0 001:499 JLINK_WriteReg(R10, 0x00000000)  returns 0x00 (0000ms, 0746ms total)
T27D0 001:499 JLINK_WriteReg(R11, 0x00000000)  returns 0x00 (0000ms, 0746ms total)
T27D0 001:499 JLINK_WriteReg(R12, 0x00000000)  returns 0x00 (0000ms, 0746ms total)
T27D0 001:499 JLINK_WriteReg(R13 (SP), 0x20001000)  returns 0x00 (0000ms, 0746ms total)
T27D0 001:499 JLINK_WriteReg(R14, 0x20000001)  returns 0x00 (0000ms, 0746ms total)
T27D0 001:499 JLINK_WriteReg(R15 (PC), 0x20000108)  returns 0x00 (0000ms, 0746ms total)
T27D0 001:499 JLINK_WriteReg(XPSR, 0x01000000)  returns 0x00 (0000ms, 0746ms total)
T27D0 001:499 JLINK_WriteReg(MSP, 0x20001000)  returns 0x00 (0000ms, 0746ms total)
T27D0 001:499 JLINK_WriteReg(PSP, 0x20001000)  returns 0x00 (0000ms, 0746ms total)
T27D0 001:499 JLINK_WriteReg(CFBP, 0x00000000)  returns 0x00 (0000ms, 0746ms total)
T27D0 001:499 JLINK_SetBPEx(Addr = 0x20000000, Type = 0xFFFFFFF2)  returns 0x0000000D (0000ms, 0746ms total)
T27D0 001:499 JLINK_Go() (0002ms, 0748ms total)
T27D0 001:501 JLINK_IsHalted()  returns FALSE (0001ms, 0749ms total)
T27D0 001:508 JLINK_IsHalted() -- CPU_ReadMem(2 bytes @ 0x20000000)  returns TRUE (0003ms, 0751ms total)
T27D0 001:511 JLINK_ReadReg(R15 (PC))  returns 0x20000000 (0000ms, 0748ms total)
T27D0 001:511 JLINK_ClrBPEx(BPHandle = 0x0000000D)  returns 0x00 (0000ms, 0748ms total)
T27D0 001:511 JLINK_ReadReg(R0)  returns 0x00000000 (0000ms, 0748ms total)
T27D0 001:511 JLINK_WriteMem(0x20000180, 0x0400 Bytes, ...) - Data: 00 F8 01 5B 55 1E 2A 1E F9 D1 02 E0 55 1E 2A 1E ... -- CPU_WriteMem(1024 bytes @ 0x20000180)  returns 0x400 (0006ms, 0754ms total)
T27D0 001:517 JLINK_WriteReg(R0, 0x08002000)  returns 0x00 (0000ms, 0754ms total)
T27D0 001:517 JLINK_WriteReg(R1, 0x00000400)  returns 0x00 (0000ms, 0754ms total)
T27D0 001:517 JLINK_WriteReg(R2, 0x20000180)  returns 0x00 (0000ms, 0754ms total)
T27D0 001:517 JLINK_WriteReg(R3, 0x00000000)  returns 0x00 (0000ms, 0754ms total)
T27D0 001:517 JLINK_WriteReg(R4, 0x00000000)  returns 0x00 (0000ms, 0754ms total)
T27D0 001:517 JLINK_WriteReg(R5, 0x00000000)  returns 0x00 (0000ms, 0754ms total)
T27D0 001:517 JLINK_WriteReg(R6, 0x00000000)  returns 0x00 (0000ms, 0754ms total)
T27D0 001:517 JLINK_WriteReg(R7, 0x00000000)  returns 0x00 (0000ms, 0754ms total)
T27D0 001:517 JLINK_WriteReg(R8, 0x00000000)  returns 0x00 (0000ms, 0754ms total)
T27D0 001:517 JLINK_WriteReg(R9, 0x2000017C)  returns 0x00 (0000ms, 0754ms total)
T27D0 001:517 JLINK_WriteReg(R10, 0x00000000)  returns 0x00 (0000ms, 0754ms total)
T27D0 001:517 JLINK_WriteReg(R11, 0x00000000)  returns 0x00 (0000ms, 0754ms total)
T27D0 001:517 JLINK_WriteReg(R12, 0x00000000)  returns 0x00 (0000ms, 0754ms total)
T27D0 001:517 JLINK_WriteReg(R13 (SP), 0x20001000)  returns 0x00 (0000ms, 0754ms total)
T27D0 001:517 JLINK_WriteReg(R14, 0x20000001)  returns 0x00 (0000ms, 0754ms total)
T27D0 001:517 JLINK_WriteReg(R15 (PC), 0x20000108)  returns 0x00 (0000ms, 0754ms total)
T27D0 001:517 JLINK_WriteReg(XPSR, 0x01000000)  returns 0x00 (0000ms, 0754ms total)
T27D0 001:517 JLINK_WriteReg(MSP, 0x20001000)  returns 0x00 (0000ms, 0754ms total)
T27D0 001:517 JLINK_WriteReg(PSP, 0x20001000)  returns 0x00 (0000ms, 0754ms total)
T27D0 001:517 JLINK_WriteReg(CFBP, 0x00000000)  returns 0x00 (0000ms, 0754ms total)
T27D0 001:517 JLINK_SetBPEx(Addr = 0x20000000, Type = 0xFFFFFFF2)  returns 0x0000000E (0000ms, 0754ms total)
T27D0 001:517 JLINK_Go() (0002ms, 0756ms total)
T27D0 001:519 JLINK_IsHalted()  returns FALSE (0001ms, 0757ms total)
T27D0 001:525 JLINK_IsHalted() -- CPU_ReadMem(2 bytes @ 0x20000000)  returns TRUE (0003ms, 0759ms total)
T27D0 001:528 JLINK_ReadReg(R15 (PC))  returns 0x20000000 (0000ms, 0756ms total)
T27D0 001:528 JLINK_ClrBPEx(BPHandle = 0x0000000E)  returns 0x00 (0000ms, 0756ms total)
T27D0 001:528 JLINK_ReadReg(R0)  returns 0x00000000 (0000ms, 0756ms total)
T27D0 001:529 JLINK_WriteMem(0x20000180, 0x0400 Bytes, ...) - Data: 20 46 FF F7 AB FF FF F7 C7 FF 08 B1 FF F7 86 FC ... -- CPU_WriteMem(1024 bytes @ 0x20000180)  returns 0x400 (0005ms, 0761ms total)
T27D0 001:534 JLINK_WriteReg(R0, 0x08002400)  returns 0x00 (0000ms, 0761ms total)
T27D0 001:534 JLINK_WriteReg(R1, 0x00000400)  returns 0x00 (0000ms, 0761ms total)
T27D0 001:534 JLINK_WriteReg(R2, 0x20000180)  returns 0x00 (0000ms, 0761ms total)
T27D0 001:534 JLINK_WriteReg(R3, 0x00000000)  returns 0x00 (0000ms, 0761ms total)
T27D0 001:534 JLINK_WriteReg(R4, 0x00000000)  returns 0x00 (0000ms, 0761ms total)
T27D0 001:534 JLINK_WriteReg(R5, 0x00000000)  returns 0x00 (0000ms, 0761ms total)
T27D0 001:534 JLINK_WriteReg(R6, 0x00000000)  returns 0x00 (0000ms, 0761ms total)
T27D0 001:534 JLINK_WriteReg(R7, 0x00000000)  returns 0x00 (0000ms, 0761ms total)
T27D0 001:534 JLINK_WriteReg(R8, 0x00000000)  returns 0x00 (0000ms, 0761ms total)
T27D0 001:535 JLINK_WriteReg(R9, 0x2000017C)  returns 0x00 (0000ms, 0762ms total)
T27D0 001:535 JLINK_WriteReg(R10, 0x00000000)  returns 0x00 (0000ms, 0762ms total)
T27D0 001:535 JLINK_WriteReg(R11, 0x00000000)  returns 0x00 (0000ms, 0762ms total)
T27D0 001:535 JLINK_WriteReg(R12, 0x00000000)  returns 0x00 (0000ms, 0762ms total)
T27D0 001:535 JLINK_WriteReg(R13 (SP), 0x20001000)  returns 0x00 (0000ms, 0762ms total)
T27D0 001:535 JLINK_WriteReg(R14, 0x20000001)  returns 0x00 (0000ms, 0762ms total)
T27D0 001:535 JLINK_WriteReg(R15 (PC), 0x20000108)  returns 0x00 (0000ms, 0762ms total)
T27D0 001:535 JLINK_WriteReg(XPSR, 0x01000000)  returns 0x00 (0000ms, 0762ms total)
T27D0 001:535 JLINK_WriteReg(MSP, 0x20001000)  returns 0x00 (0000ms, 0762ms total)
T27D0 001:535 JLINK_WriteReg(PSP, 0x20001000)  returns 0x00 (0000ms, 0762ms total)
T27D0 001:535 JLINK_WriteReg(CFBP, 0x00000000)  returns 0x00 (0000ms, 0762ms total)
T27D0 001:535 JLINK_SetBPEx(Addr = 0x20000000, Type = 0xFFFFFFF2)  returns 0x0000000F (0000ms, 0762ms total)
T27D0 001:535 JLINK_Go() (0002ms, 0764ms total)
T27D0 001:537 JLINK_IsHalted()  returns FALSE (0000ms, 0764ms total)
T27D0 001:543 JLINK_IsHalted() -- CPU_ReadMem(2 bytes @ 0x20000000)  returns TRUE (0003ms, 0767ms total)
T27D0 001:546 JLINK_ReadReg(R15 (PC))  returns 0x20000000 (0000ms, 0764ms total)
T27D0 001:546 JLINK_ClrBPEx(BPHandle = 0x0000000F)  returns 0x00 (0000ms, 0764ms total)
T27D0 001:546 JLINK_ReadReg(R0)  returns 0x00000000 (0000ms, 0764ms total)
T27D0 001:546 JLINK_WriteMem(0x20000180, 0x0400 Bytes, ...) - Data: 7F 42 45 F0 10 05 4F F0 FF 39 0B 98 00 78 2E 28 ... -- CPU_WriteMem(1024 bytes @ 0x20000180)  returns 0x400 (0006ms, 0770ms total)
T27D0 001:552 JLINK_WriteReg(R0, 0x08002800)  returns 0x00 (0000ms, 0770ms total)
T27D0 001:552 JLINK_WriteReg(R1, 0x00000400)  returns 0x00 (0000ms, 0770ms total)
T27D0 001:552 JLINK_WriteReg(R2, 0x20000180)  returns 0x00 (0000ms, 0770ms total)
T27D0 001:552 JLINK_WriteReg(R3, 0x00000000)  returns 0x00 (0000ms, 0770ms total)
T27D0 001:552 JLINK_WriteReg(R4, 0x00000000)  returns 0x00 (0000ms, 0770ms total)
T27D0 001:552 JLINK_WriteReg(R5, 0x00000000)  returns 0x00 (0000ms, 0770ms total)
T27D0 001:552 JLINK_WriteReg(R6, 0x00000000)  returns 0x00 (0000ms, 0770ms total)
T27D0 001:552 JLINK_WriteReg(R7, 0x00000000)  returns 0x00 (0000ms, 0770ms total)
T27D0 001:552 JLINK_WriteReg(R8, 0x00000000)  returns 0x00 (0000ms, 0770ms total)
T27D0 001:552 JLINK_WriteReg(R9, 0x2000017C)  returns 0x00 (0000ms, 0770ms total)
T27D0 001:552 JLINK_WriteReg(R10, 0x00000000)  returns 0x00 (0000ms, 0770ms total)
T27D0 001:552 JLINK_WriteReg(R11, 0x00000000)  returns 0x00 (0000ms, 0770ms total)
T27D0 001:552 JLINK_WriteReg(R12, 0x00000000)  returns 0x00 (0000ms, 0770ms total)
T27D0 001:552 JLINK_WriteReg(R13 (SP), 0x20001000)  returns 0x00 (0000ms, 0770ms total)
T27D0 001:552 JLINK_WriteReg(R14, 0x20000001)  returns 0x00 (0000ms, 0770ms total)
T27D0 001:552 JLINK_WriteReg(R15 (PC), 0x20000108)  returns 0x00 (0000ms, 0770ms total)
T27D0 001:552 JLINK_WriteReg(XPSR, 0x01000000)  returns 0x00 (0000ms, 0770ms total)
T27D0 001:552 JLINK_WriteReg(MSP, 0x20001000)  returns 0x00 (0000ms, 0770ms total)
T27D0 001:552 JLINK_WriteReg(PSP, 0x20001000)  returns 0x00 (0000ms, 0770ms total)
T27D0 001:552 JLINK_WriteReg(CFBP, 0x00000000)  returns 0x00 (0000ms, 0770ms total)
T27D0 001:552 JLINK_SetBPEx(Addr = 0x20000000, Type = 0xFFFFFFF2)  returns 0x00000010 (0000ms, 0770ms total)
T27D0 001:552 JLINK_Go() (0002ms, 0772ms total)
